TFE4B9780 000:002.950   SEGGER J-Link V7.92o Log File
TFE4B9780 000:003.041   DLL Compiled: Nov  8 2023 15:46:18
TFE4B9780 000:003.045   Logging started @ 2024-01-29 22:20
TFE4B9780 000:003.047   Process: /home/micron/.eclipse/com.renesas.platform_250794868/DebugComp/RA/e2-server-gdb
TFE4B9780 000:003.050 - 3.049ms
TFE4B9780 000:003.053 JLINK_GetDLLVersion()
TFE4B9780 000:003.056 - 0.003ms returns 79215
TFE4B9780 000:003.606 JLINK_OpenEx(...)
TFE4B9780 000:200.334   Firmware: J-Link OB-RA4M2 compiled Oct 30 2023 12:13:20
TFE4B9780 000:200.859   Firmware: J-Link OB-RA4M2 compiled Oct 30 2023 12:13:20
TFE4B9780 000:212.700   Hardware: V1.00
TFE4B9780 000:212.728   S/N: 1089351345
TFE4B9780 000:212.732   OEM: SEGGER
TFE4B9780 000:212.735   Feature(s): None
TFE4B9780 000:213.421   Bootloader: 2021 May 14
TFE4B9780 000:213.867   USB speed mode: Full speed (12 MBit/s)
TFE4B9780 000:214.329   TELNET listener socket opened on port 19021
TFE4B9780 000:214.453   WEBSRV WEBSRV_Init(): Starting webserver thread(s)
TFE4B9780 000:214.738   WEBSRV Webserver running on local port 19080
TFE4B9780 000:214.773   Looking for J-Link GUI Server exe at: ARM/Segger_v7.92.15/JLinkGUIServerExe
TFE4B9780 000:214.896   Looking for J-Link GUI Server exe at: /opt/SEGGER/JLink/JLinkGUIServerExe
TFE4B9780 000:215.300   Forking J-Link GUI Server: /opt/SEGGER/JLink/JLinkGUIServerExe
TFE4B9780 000:249.215   J-Link GUI Server info: "J-Link GUI server V7.92o "
TFE4B9780 000:250.409 - 246.802ms returns "O.K."
TFE4B9780 000:250.447 JLINK_TIF_Select(JLINKARM_TIF_SWD)
TFE4B9780 000:252.160 - 1.712ms returns 0x00
TFE4B9780 000:252.174 JLINK_ClrRESET()
TFE4B9780 000:252.379 - 0.206ms
TFE4B9780 000:302.917 JLINK_SetSpeed(1500)
TFE4B9780 000:303.093 - 0.177ms
TFE4B9780 000:303.105 JLINK_CORESIGHT_Configure(PerformTIFInit=0)
TFE4B9780 000:303.569 - 0.464ms returns 0
TFE4B9780 000:303.599 JLINK_CORESIGHT_ReadAPDPReg(DP reg 0x00)
TFE4B9780 000:304.303   Value=0x6BA02477
TFE4B9780 000:304.329 - 0.730ms returns 0
TFE4B9780 000:304.347 JLINK_CORESIGHT_WriteAPDPReg(DP reg 0x00, 0x0000001F)
TFE4B9780 000:304.641 - 0.294ms returns 0
TFE4B9780 000:304.669 JLINK_CORESIGHT_ReadAPDPReg(DP reg 0x00)
TFE4B9780 000:304.944   Value=0x6BA02477
TFE4B9780 000:304.953 - 0.285ms returns 0
TFE4B9780 000:304.962 JLINK_CORESIGHT_WriteAPDPReg(DP reg 0x02, 0x00000000)
TFE4B9780 000:305.170 - 0.208ms returns 0
TFE4B9780 000:305.179 JLINK_CORESIGHT_WriteAPDPReg(DP reg 0x01, 0x50000000)
TFE4B9780 000:305.400 - 0.221ms returns 0
TFE4B9780 000:305.510 JLINK_CORESIGHT_ReadAPDPReg(DP reg 0x01)
TFE4B9780 000:305.719   Value=0xF0000000
TFE4B9780 000:305.729 - 0.219ms returns 0
TFE4B9780 000:305.734 JLINK_CORESIGHT_WriteAPDPReg(DP reg 0x00, 0x0000001F)
TFE4B9780 000:305.913 - 0.179ms returns 0
TFE4B9780 000:305.922 JLINK_CORESIGHT_ReadAPDPReg(DP reg 0x00)
TFE4B9780 000:306.108   Value=0x6BA02477
TFE4B9780 000:306.113 - 0.191ms returns 0
TFE4B9780 000:306.116 JLINK_CORESIGHT_WriteAPDPReg(DP reg 0x01, 0x54000000)
TFE4B9780 000:306.308 - 0.192ms returns 0
TFE4B9780 000:306.312 JLINK_CORESIGHT_WriteAPDPReg(DP reg 0x01, 0x50000F00)
TFE4B9780 000:306.489 - 0.176ms returns 0
TFE4B9780 000:306.492 JLINK_CORESIGHT_WriteAPDPReg(DP reg 0x02, 0x01000000)
TFE4B9780 000:306.701 - 0.209ms returns 0
TFE4B9780 000:306.705 JLINK_CORESIGHT_WriteAPDPReg(AP reg 0x00, 0x80000002)
TFE4B9780 000:306.947 - 0.241ms returns 0
TFE4B9780 000:306.950 JLINK_CORESIGHT_WriteAPDPReg(AP reg 0x01, 0x80011100)
TFE4B9780 000:307.151 - 0.201ms returns 0
TFE4B9780 000:307.156 JLINK_CORESIGHT_WriteAPDPReg(AP reg 0x03, 0x000000A5)
TFE4B9780 000:307.340 - 0.184ms returns 0
TFE4B9780 000:307.344 JLINK_CORESIGHT_WriteAPDPReg(AP reg 0x00, 0x80000002)
TFE4B9780 000:307.627 - 0.282ms returns 0
TFE4B9780 000:307.638 JLINK_CORESIGHT_WriteAPDPReg(AP reg 0x01, 0x80011100)
TFE4B9780 000:307.871 - 0.232ms returns 0
TFE4B9780 000:307.881 JLINK_CORESIGHT_ReadAPDPReg(AP reg 0x03)
TFE4B9780 000:308.185   Value=0x000000A5
TFE4B9780 000:308.194 - 0.314ms returns 0
TFE4B9780 000:308.199 JLINK_ClrTMS()
TFE4B9780 000:308.263 - 0.065ms
TFE4B9780 000:313.565 JLINK_SetTCK()
TFE4B9780 000:313.684 - 0.119ms returns 0
TFE4B9780 000:318.969 JLINK_SetRESET()
TFE4B9780 000:319.069 - 0.100ms
TFE4B9780 000:519.208 JLINK_CORESIGHT_WriteAPDPReg(AP reg 0x00, 0x80000002)
TFE4B9780 000:519.594 - 0.391ms returns 0
TFE4B9780 000:519.603 JLINK_CORESIGHT_WriteAPDPReg(AP reg 0x01, 0x80011100)
TFE4B9780 000:519.874 - 0.271ms returns 0
TFE4B9780 000:519.884 JLINK_CORESIGHT_ReadAPDPReg(AP reg 0x03)
TFE4B9780 000:520.222   Value=0x00000000
TFE4B9780 000:520.230 - 0.347ms returns 0
TFE4B9780 000:520.253 JLINK_CORESIGHT_WriteAPDPReg(AP reg 0x00, 0x80000002)
TFE4B9780 000:520.467 - 0.213ms returns 0
TFE4B9780 000:520.471 JLINK_CORESIGHT_WriteAPDPReg(AP reg 0x01, 0x80011140)
TFE4B9780 000:520.640 - 0.168ms returns 0
TFE4B9780 000:520.644 JLINK_CORESIGHT_ReadAPDPReg(AP reg 0x03)
TFE4B9780 000:520.923   Value=0x00000002
TFE4B9780 000:520.930 - 0.286ms returns 0
TFE4B9780 000:520.934 JLINK_CORESIGHT_WriteAPDPReg(AP reg 0x00, 0x80000002)
TFE4B9780 000:521.126 - 0.192ms returns 0
TFE4B9780 000:521.130 JLINK_CORESIGHT_WriteAPDPReg(AP reg 0x01, 0x80011120)
TFE4B9780 000:521.326 - 0.197ms returns 0
TFE4B9780 000:521.329 JLINK_CORESIGHT_WriteAPDPReg(AP reg 0x03, 0x00000055)
TFE4B9780 000:521.544 - 0.215ms returns 0
TFE4B9780 000:521.547 JLINK_CORESIGHT_WriteAPDPReg(AP reg 0x00, 0x80000002)
TFE4B9780 000:521.708 - 0.160ms returns 0
TFE4B9780 000:521.711 JLINK_CORESIGHT_WriteAPDPReg(AP reg 0x01, 0x80011140)
TFE4B9780 000:521.923 - 0.212ms returns 0
TFE4B9780 000:521.927 JLINK_CORESIGHT_ReadAPDPReg(AP reg 0x03)
TFE4B9780 000:522.205   Value=0x00000000
TFE4B9780 000:522.215 - 0.288ms returns 0
TFE4B9780 000:522.220 JLINK_CORESIGHT_WriteAPDPReg(AP reg 0x00, 0x80000002)
TFE4B9780 000:522.412 - 0.193ms returns 0
TFE4B9780 000:522.416 JLINK_CORESIGHT_WriteAPDPReg(AP reg 0x01, 0x80011130)
TFE4B9780 000:522.587 - 0.171ms returns 0
TFE4B9780 000:522.590 JLINK_CORESIGHT_ReadAPDPReg(AP reg 0x03)
TFE4B9780 000:522.828   Value=0x000000C6
TFE4B9780 000:522.833 - 0.242ms returns 0
TFE4B9780 000:522.841 JLINK_CORESIGHT_WriteAPDPReg(AP reg 0x00, 0x80000002)
TFE4B9780 000:523.052 - 0.212ms returns 0
TFE4B9780 000:523.056 JLINK_CORESIGHT_WriteAPDPReg(AP reg 0x01, 0x80011140)
TFE4B9780 000:523.234 - 0.177ms returns 0
TFE4B9780 000:523.237 JLINK_CORESIGHT_ReadAPDPReg(AP reg 0x03)
TFE4B9780 000:523.498   Value=0x00000002
TFE4B9780 000:523.504 - 0.267ms returns 0
TFE4B9780 000:523.507 JLINK_CORESIGHT_WriteAPDPReg(AP reg 0x00, 0x80000002)
TFE4B9780 000:523.700 - 0.193ms returns 0
TFE4B9780 000:523.704 JLINK_CORESIGHT_WriteAPDPReg(AP reg 0x01, 0x80011120)
TFE4B9780 000:523.922 - 0.219ms returns 0
TFE4B9780 000:523.927 JLINK_CORESIGHT_WriteAPDPReg(AP reg 0x03, 0x3A010001)
TFE4B9780 000:524.144 - 0.217ms returns 0
TFE4B9780 000:524.157 JLINK_CORESIGHT_WriteAPDPReg(AP reg 0x00, 0x80000002)
TFE4B9780 000:524.369 - 0.213ms returns 0
TFE4B9780 000:524.379 JLINK_CORESIGHT_WriteAPDPReg(AP reg 0x01, 0x80011140)
TFE4B9780 000:524.582 - 0.203ms returns 0
TFE4B9780 000:524.591 JLINK_CORESIGHT_ReadAPDPReg(AP reg 0x03)
TFE4B9780 000:524.829   Value=0x00000002
TFE4B9780 000:524.834 - 0.244ms returns 0
TFE4B9780 000:524.837 JLINK_CORESIGHT_WriteAPDPReg(AP reg 0x00, 0x80000002)
TFE4B9780 000:525.050 - 0.213ms returns 0
TFE4B9780 000:525.054 JLINK_CORESIGHT_WriteAPDPReg(AP reg 0x01, 0x80011120)
TFE4B9780 000:525.309 - 0.255ms returns 0
TFE4B9780 000:525.315 JLINK_CORESIGHT_WriteAPDPReg(AP reg 0x03, 0x000003C5)
TFE4B9780 000:525.491 - 0.175ms returns 0
TFE4B9780 000:525.497 JLINK_CORESIGHT_WriteAPDPReg(AP reg 0x00, 0x80000002)
TFE4B9780 000:525.665 - 0.168ms returns 0
TFE4B9780 000:525.668 JLINK_CORESIGHT_WriteAPDPReg(AP reg 0x01, 0x80011140)
TFE4B9780 000:525.911 - 0.243ms returns 0
TFE4B9780 000:525.915 JLINK_CORESIGHT_ReadAPDPReg(AP reg 0x03)
TFE4B9780 000:526.109   Value=0x00000002
TFE4B9780 000:526.113 - 0.198ms returns 0
TFE4B9780 000:526.116 JLINK_CORESIGHT_ReadAPDPReg(AP reg 0x03)
TFE4B9780 000:526.330   Value=0x00000002
TFE4B9780 000:526.341 - 0.225ms returns 0
TFE4B9780 000:526.344 JLINK_CORESIGHT_ReadAPDPReg(AP reg 0x03)
TFE4B9780 000:526.572   Value=0x00000002
TFE4B9780 000:526.576 - 0.232ms returns 0
TFE4B9780 000:526.597 JLINK_CORESIGHT_ReadAPDPReg(AP reg 0x03)
TFE4B9780 000:526.830   Value=0x00000002
TFE4B9780 000:526.834 - 0.237ms returns 0
TFE4B9780 000:526.837 JLINK_CORESIGHT_ReadAPDPReg(AP reg 0x03)
TFE4B9780 000:527.094   Value=0x00000002
TFE4B9780 000:527.102 - 0.265ms returns 0
TFE4B9780 000:527.107 JLINK_CORESIGHT_ReadAPDPReg(AP reg 0x03)
TFE4B9780 000:527.362   Value=0x00000002
TFE4B9780 000:527.380 - 0.274ms returns 0
TFE4B9780 000:527.385 JLINK_CORESIGHT_ReadAPDPReg(AP reg 0x03)
TFE4B9780 000:527.615   Value=0x00000002
TFE4B9780 000:527.620 - 0.235ms returns 0
TFE4B9780 000:527.623 JLINK_CORESIGHT_ReadAPDPReg(AP reg 0x03)
TFE4B9780 000:527.919   Value=0x00000002
TFE4B9780 000:527.923 - 0.300ms returns 0
TFE4B9780 000:527.944 JLINK_CORESIGHT_ReadAPDPReg(AP reg 0x03)
TFE4B9780 000:528.162   Value=0x00000000
TFE4B9780 000:528.178 - 0.234ms returns 0
TFE4B9780 000:528.181 JLINK_CORESIGHT_WriteAPDPReg(AP reg 0x00, 0x80000002)
TFE4B9780 000:528.381 - 0.199ms returns 0
TFE4B9780 000:528.404 JLINK_CORESIGHT_WriteAPDPReg(AP reg 0x01, 0x80011130)
TFE4B9780 000:528.580 - 0.176ms returns 0
TFE4B9780 000:528.583 JLINK_CORESIGHT_ReadAPDPReg(AP reg 0x03)
TFE4B9780 000:528.809   Value=0x3A2A0081
TFE4B9780 000:528.813 - 0.230ms returns 0
TFE4B9780 000:528.816 JLINK_CORESIGHT_WriteAPDPReg(AP reg 0x00, 0x80000002)
TFE4B9780 000:529.037 - 0.221ms returns 0
TFE4B9780 000:529.041 JLINK_CORESIGHT_WriteAPDPReg(AP reg 0x01, 0x80011140)
TFE4B9780 000:529.241 - 0.201ms returns 0
TFE4B9780 000:529.245 JLINK_CORESIGHT_ReadAPDPReg(AP reg 0x03)
TFE4B9780 000:529.492   Value=0x00000000
TFE4B9780 000:529.501 - 0.255ms returns 0
TFE4B9780 000:529.505 JLINK_CORESIGHT_WriteAPDPReg(AP reg 0x00, 0x80000002)
TFE4B9780 000:529.724 - 0.218ms returns 0
TFE4B9780 000:529.730 JLINK_CORESIGHT_WriteAPDPReg(AP reg 0x01, 0x80011130)
TFE4B9780 000:529.912 - 0.181ms returns 0
TFE4B9780 000:529.916 JLINK_CORESIGHT_ReadAPDPReg(AP reg 0x03)
TFE4B9780 000:530.142   Value=0x808D5B00
TFE4B9780 000:530.161 - 0.245ms returns 0
TFE4B9780 000:530.164 JLINK_CORESIGHT_WriteAPDPReg(AP reg 0x00, 0x80000002)
TFE4B9780 000:530.358 - 0.194ms returns 0
TFE4B9780 000:530.375 JLINK_CORESIGHT_WriteAPDPReg(AP reg 0x01, 0x80011140)
TFE4B9780 000:530.575 - 0.200ms returns 0
TFE4B9780 000:530.579 JLINK_CORESIGHT_ReadAPDPReg(AP reg 0x03)
TFE4B9780 000:530.800   Value=0x00000000
TFE4B9780 000:530.807 - 0.228ms returns 0
TFE4B9780 000:530.811 JLINK_CORESIGHT_WriteAPDPReg(AP reg 0x00, 0x80000002)
TFE4B9780 000:531.062 - 0.252ms returns 0
TFE4B9780 000:531.066 JLINK_CORESIGHT_WriteAPDPReg(AP reg 0x01, 0x80011130)
TFE4B9780 000:531.241 - 0.175ms returns 0
TFE4B9780 000:531.245 JLINK_CORESIGHT_ReadAPDPReg(AP reg 0x03)
TFE4B9780 000:531.469   Value=0x0603030B
TFE4B9780 000:531.473 - 0.229ms returns 0
TFE4B9780 000:531.476 JLINK_CORESIGHT_WriteAPDPReg(AP reg 0x00, 0x80000002)
TFE4B9780 000:531.661 - 0.185ms returns 0
TFE4B9780 000:531.665 JLINK_CORESIGHT_WriteAPDPReg(AP reg 0x01, 0x80011140)
TFE4B9780 000:531.874 - 0.209ms returns 0
TFE4B9780 000:531.896 JLINK_CORESIGHT_ReadAPDPReg(AP reg 0x03)
TFE4B9780 000:532.128   Value=0x00000000
TFE4B9780 000:532.133 - 0.237ms returns 0
TFE4B9780 000:532.136 JLINK_CORESIGHT_WriteAPDPReg(AP reg 0x00, 0x80000002)
TFE4B9780 000:532.313 - 0.177ms returns 0
TFE4B9780 000:532.318 JLINK_CORESIGHT_WriteAPDPReg(AP reg 0x01, 0x80011130)
TFE4B9780 000:532.501 - 0.182ms returns 0
TFE4B9780 000:532.504 JLINK_CORESIGHT_ReadAPDPReg(AP reg 0x03)
TFE4B9780 000:532.766   Value=0x2E4B4E20
TFE4B9780 000:532.770 - 0.266ms returns 0
TFE4B9780 000:532.775 JLINK_CORESIGHT_WriteAPDPReg(AP reg 0x00, 0x80000002)
TFE4B9780 000:532.958 - 0.182ms returns 0
TFE4B9780 000:532.962 JLINK_CORESIGHT_WriteAPDPReg(AP reg 0x01, 0x80011140)
TFE4B9780 000:533.147 - 0.185ms returns 0
TFE4B9780 000:533.151 JLINK_CORESIGHT_ReadAPDPReg(AP reg 0x03)
TFE4B9780 000:533.375   Value=0x00000000
TFE4B9780 000:533.380 - 0.229ms returns 0
TFE4B9780 000:533.384 JLINK_CORESIGHT_WriteAPDPReg(AP reg 0x00, 0x80000002)
TFE4B9780 000:533.567 - 0.184ms returns 0
TFE4B9780 000:533.586 JLINK_CORESIGHT_WriteAPDPReg(AP reg 0x01, 0x80011130)
TFE4B9780 000:533.771 - 0.184ms returns 0
TFE4B9780 000:533.775 JLINK_CORESIGHT_ReadAPDPReg(AP reg 0x03)
TFE4B9780 000:533.989   Value=0x4E75D892
TFE4B9780 000:533.994 - 0.218ms returns 0
TFE4B9780 000:533.997 JLINK_CORESIGHT_WriteAPDPReg(AP reg 0x00, 0x80000002)
TFE4B9780 000:534.161 - 0.164ms returns 0
TFE4B9780 000:534.169 JLINK_CORESIGHT_WriteAPDPReg(AP reg 0x01, 0x80011140)
TFE4B9780 000:534.344 - 0.175ms returns 0
TFE4B9780 000:534.362 JLINK_CORESIGHT_ReadAPDPReg(AP reg 0x03)
TFE4B9780 000:534.582   Value=0x00000000
TFE4B9780 000:534.586 - 0.224ms returns 0
TFE4B9780 000:534.590 JLINK_CORESIGHT_WriteAPDPReg(AP reg 0x00, 0x80000002)
TFE4B9780 000:534.771 - 0.181ms returns 0
TFE4B9780 000:534.787 JLINK_CORESIGHT_WriteAPDPReg(AP reg 0x01, 0x80011130)
TFE4B9780 000:535.050 - 0.263ms returns 0
TFE4B9780 000:535.054 JLINK_CORESIGHT_ReadAPDPReg(AP reg 0x03)
TFE4B9780 000:535.300   Value=0x34503036
TFE4B9780 000:535.305 - 0.250ms returns 0
TFE4B9780 000:535.308 JLINK_CORESIGHT_WriteAPDPReg(AP reg 0x00, 0x80000002)
TFE4B9780 000:535.492 - 0.184ms returns 0
TFE4B9780 000:535.496 JLINK_CORESIGHT_WriteAPDPReg(AP reg 0x01, 0x80011140)
TFE4B9780 000:535.684 - 0.188ms returns 0
TFE4B9780 000:535.688 JLINK_CORESIGHT_ReadAPDPReg(AP reg 0x03)
TFE4B9780 000:535.918   Value=0x00000000
TFE4B9780 000:535.922 - 0.234ms returns 0
TFE4B9780 000:535.926 JLINK_CORESIGHT_WriteAPDPReg(AP reg 0x00, 0x80000002)
TFE4B9780 000:536.141 - 0.215ms returns 0
TFE4B9780 000:536.148 JLINK_CORESIGHT_WriteAPDPReg(AP reg 0x01, 0x80011130)
TFE4B9780 000:536.308 - 0.160ms returns 0
TFE4B9780 000:536.313 JLINK_CORESIGHT_ReadAPDPReg(AP reg 0x03)
TFE4B9780 000:536.536   Value=0x72142D36
TFE4B9780 000:536.541 - 0.228ms returns 0
TFE4B9780 000:536.545 JLINK_CORESIGHT_WriteAPDPReg(AP reg 0x00, 0x80000002)
TFE4B9780 000:536.714 - 0.170ms returns 0
TFE4B9780 000:536.719 JLINK_CORESIGHT_WriteAPDPReg(AP reg 0x01, 0x80011140)
TFE4B9780 000:536.913 - 0.194ms returns 0
TFE4B9780 000:536.920 JLINK_CORESIGHT_ReadAPDPReg(AP reg 0x03)
TFE4B9780 000:537.141   Value=0x00000000
TFE4B9780 000:537.147 - 0.226ms returns 0
TFE4B9780 000:537.151 JLINK_CORESIGHT_WriteAPDPReg(AP reg 0x00, 0x80000002)
TFE4B9780 000:537.337 - 0.185ms returns 0
TFE4B9780 000:537.344 JLINK_CORESIGHT_WriteAPDPReg(AP reg 0x01, 0x80011130)
TFE4B9780 000:537.538 - 0.194ms returns 0
TFE4B9780 000:537.545 JLINK_CORESIGHT_ReadAPDPReg(AP reg 0x03)
TFE4B9780 000:537.837   Value=0x46375294
TFE4B9780 000:537.846 - 0.300ms returns 0
TFE4B9780 000:537.865 JLINK_CORESIGHT_WriteAPDPReg(AP reg 0x00, 0x80000002)
TFE4B9780 000:538.094 - 0.229ms returns 0
TFE4B9780 000:538.103 JLINK_CORESIGHT_WriteAPDPReg(AP reg 0x01, 0x80011140)
TFE4B9780 000:538.336 - 0.232ms returns 0
TFE4B9780 000:538.359 JLINK_CORESIGHT_ReadAPDPReg(AP reg 0x03)
TFE4B9780 000:538.662   Value=0x00000000
TFE4B9780 000:538.667 - 0.309ms returns 0
TFE4B9780 000:538.671 JLINK_CORESIGHT_WriteAPDPReg(AP reg 0x00, 0x80000002)
TFE4B9780 000:538.920 - 0.248ms returns 0
TFE4B9780 000:538.924 JLINK_CORESIGHT_WriteAPDPReg(AP reg 0x01, 0x80011130)
TFE4B9780 000:539.101 - 0.177ms returns 0
TFE4B9780 000:539.108 JLINK_CORESIGHT_ReadAPDPReg(AP reg 0x03)
TFE4B9780 000:539.324   Value=0x314D3841
TFE4B9780 000:539.331 - 0.223ms returns 0
TFE4B9780 000:539.335 JLINK_CORESIGHT_WriteAPDPReg(AP reg 0x00, 0x80000002)
TFE4B9780 000:539.519 - 0.184ms returns 0
TFE4B9780 000:539.524 JLINK_CORESIGHT_WriteAPDPReg(AP reg 0x01, 0x80011140)
TFE4B9780 000:539.695 - 0.171ms returns 0
TFE4B9780 000:539.699 JLINK_CORESIGHT_ReadAPDPReg(AP reg 0x03)
TFE4B9780 000:539.911   Value=0x00000000
TFE4B9780 000:539.916 - 0.217ms returns 0
TFE4B9780 000:539.933 JLINK_CORESIGHT_WriteAPDPReg(AP reg 0x00, 0x80000002)
TFE4B9780 000:540.155 - 0.222ms returns 0
TFE4B9780 000:540.182 JLINK_CORESIGHT_WriteAPDPReg(AP reg 0x01, 0x80011130)
TFE4B9780 000:540.435 - 0.253ms returns 0
TFE4B9780 000:540.441 JLINK_CORESIGHT_ReadAPDPReg(AP reg 0x03)
TFE4B9780 000:540.651   Value=0x43454841
TFE4B9780 000:540.656 - 0.214ms returns 0
TFE4B9780 000:540.660 JLINK_CORESIGHT_WriteAPDPReg(AP reg 0x00, 0x80000002)
TFE4B9780 000:540.821 - 0.160ms returns 0
TFE4B9780 000:540.828 JLINK_CORESIGHT_WriteAPDPReg(AP reg 0x01, 0x80011140)
TFE4B9780 000:541.088 - 0.259ms returns 0
TFE4B9780 000:541.110 JLINK_CORESIGHT_ReadAPDPReg(AP reg 0x03)
TFE4B9780 000:541.401   Value=0x00000000
TFE4B9780 000:541.410 - 0.300ms returns 0
TFE4B9780 000:541.428 JLINK_CORESIGHT_WriteAPDPReg(AP reg 0x00, 0x80000002)
TFE4B9780 000:541.636 - 0.207ms returns 0
TFE4B9780 000:541.641 JLINK_CORESIGHT_WriteAPDPReg(AP reg 0x01, 0x80011130)
TFE4B9780 000:541.811 - 0.170ms returns 0
TFE4B9780 000:541.816 JLINK_CORESIGHT_ReadAPDPReg(AP reg 0x03)
TFE4B9780 000:542.082   Value=0x20204442
TFE4B9780 000:542.086 - 0.270ms returns 0
TFE4B9780 000:542.090 JLINK_CORESIGHT_WriteAPDPReg(AP reg 0x00, 0x80000002)
TFE4B9780 000:542.340 - 0.250ms returns 0
TFE4B9780 000:542.347 JLINK_CORESIGHT_WriteAPDPReg(AP reg 0x01, 0x80011140)
TFE4B9780 000:542.544 - 0.198ms returns 0
TFE4B9780 000:542.551 JLINK_CORESIGHT_ReadAPDPReg(AP reg 0x03)
TFE4B9780 000:542.784   Value=0x00000000
TFE4B9780 000:542.789 - 0.238ms returns 0
TFE4B9780 000:542.793 JLINK_CORESIGHT_WriteAPDPReg(AP reg 0x00, 0x80000002)
TFE4B9780 000:543.025 - 0.233ms returns 0
TFE4B9780 000:543.030 JLINK_CORESIGHT_WriteAPDPReg(AP reg 0x01, 0x80011130)
TFE4B9780 000:543.228 - 0.198ms returns 0
TFE4B9780 000:543.233 JLINK_CORESIGHT_ReadAPDPReg(AP reg 0x03)
TFE4B9780 000:543.482   Value=0x0003E520
TFE4B9780 000:543.487 - 0.254ms returns 0
TFE4B9780 000:543.565 JLINK_CORESIGHT_WriteAPDPReg(AP reg 0x00, 0x80000002)
TFE4B9780 000:543.742 - 0.178ms returns 0
TFE4B9780 000:543.747 JLINK_CORESIGHT_WriteAPDPReg(AP reg 0x01, 0x80011140)
TFE4B9780 000:543.920 - 0.173ms returns 0
TFE4B9780 000:543.925 JLINK_CORESIGHT_ReadAPDPReg(AP reg 0x03)
TFE4B9780 000:544.147   Value=0x00000002
TFE4B9780 000:544.154 - 0.230ms returns 0
TFE4B9780 000:544.169 JLINK_CORESIGHT_WriteAPDPReg(AP reg 0x00, 0x80000002)
TFE4B9780 000:544.356 - 0.186ms returns 0
TFE4B9780 000:544.378 JLINK_CORESIGHT_WriteAPDPReg(AP reg 0x01, 0x80011120)
TFE4B9780 000:544.581 - 0.204ms returns 0
TFE4B9780 000:544.585 JLINK_CORESIGHT_WriteAPDPReg(AP reg 0x03, 0x3A010001)
TFE4B9780 000:544.745 - 0.160ms returns 0
TFE4B9780 000:544.749 JLINK_CORESIGHT_WriteAPDPReg(AP reg 0x00, 0x80000002)
TFE4B9780 000:544.920 - 0.171ms returns 0
TFE4B9780 000:544.924 JLINK_CORESIGHT_WriteAPDPReg(AP reg 0x01, 0x80011140)
TFE4B9780 000:545.103 - 0.179ms returns 0
TFE4B9780 000:545.107 JLINK_CORESIGHT_ReadAPDPReg(AP reg 0x03)
TFE4B9780 000:545.334   Value=0x00000002
TFE4B9780 000:545.340 - 0.234ms returns 0
TFE4B9780 000:545.344 JLINK_CORESIGHT_WriteAPDPReg(AP reg 0x00, 0x80000002)
TFE4B9780 000:545.536 - 0.192ms returns 0
TFE4B9780 000:545.540 JLINK_CORESIGHT_WriteAPDPReg(AP reg 0x01, 0x80011120)
TFE4B9780 000:545.715 - 0.175ms returns 0
TFE4B9780 000:545.719 JLINK_CORESIGHT_WriteAPDPReg(AP reg 0x03, 0x000003C5)
TFE4B9780 000:545.911 - 0.192ms returns 0
TFE4B9780 000:545.915 JLINK_CORESIGHT_WriteAPDPReg(AP reg 0x00, 0x80000002)
TFE4B9780 000:546.069 - 0.154ms returns 0
TFE4B9780 000:546.073 JLINK_CORESIGHT_WriteAPDPReg(AP reg 0x01, 0x80011140)
TFE4B9780 000:546.250 - 0.176ms returns 0
TFE4B9780 000:546.254 JLINK_CORESIGHT_ReadAPDPReg(AP reg 0x03)
TFE4B9780 000:546.481   Value=0x00000002
TFE4B9780 000:546.485 - 0.231ms returns 0
TFE4B9780 000:546.488 JLINK_CORESIGHT_ReadAPDPReg(AP reg 0x03)
TFE4B9780 000:546.803   Value=0x00000002
TFE4B9780 000:546.812 - 0.323ms returns 0
TFE4B9780 000:546.816 JLINK_CORESIGHT_ReadAPDPReg(AP reg 0x03)
TFE4B9780 000:547.086   Value=0x00000000
TFE4B9780 000:547.092 - 0.276ms returns 0
TFE4B9780 000:547.095 JLINK_CORESIGHT_WriteAPDPReg(AP reg 0x00, 0x80000002)
TFE4B9780 000:547.287 - 0.192ms returns 0
TFE4B9780 000:547.292 JLINK_CORESIGHT_WriteAPDPReg(AP reg 0x01, 0x80011130)
TFE4B9780 000:547.552 - 0.260ms returns 0
TFE4B9780 000:547.561 JLINK_CORESIGHT_ReadAPDPReg(AP reg 0x03)
TFE4B9780 000:547.857   Value=0x3A2A0081
TFE4B9780 000:547.866 - 0.306ms returns 0
TFE4B9780 000:547.870 JLINK_CORESIGHT_WriteAPDPReg(AP reg 0x00, 0x80000002)
TFE4B9780 000:548.171 - 0.301ms returns 0
TFE4B9780 000:548.176 JLINK_CORESIGHT_WriteAPDPReg(AP reg 0x01, 0x80011140)
TFE4B9780 000:548.410 - 0.234ms returns 0
TFE4B9780 000:548.416 JLINK_CORESIGHT_ReadAPDPReg(AP reg 0x03)
TFE4B9780 000:548.672   Value=0x00000000
TFE4B9780 000:548.677 - 0.261ms returns 0
TFE4B9780 000:548.680 JLINK_CORESIGHT_WriteAPDPReg(AP reg 0x00, 0x80000002)
TFE4B9780 000:548.950 - 0.269ms returns 0
TFE4B9780 000:548.955 JLINK_CORESIGHT_WriteAPDPReg(AP reg 0x01, 0x80011130)
TFE4B9780 000:549.166 - 0.211ms returns 0
TFE4B9780 000:549.171 JLINK_CORESIGHT_ReadAPDPReg(AP reg 0x03)
TFE4B9780 000:549.397   Value=0x808D5B00
TFE4B9780 000:549.401 - 0.230ms returns 0
TFE4B9780 000:549.405 JLINK_CORESIGHT_WriteAPDPReg(AP reg 0x00, 0x80000002)
TFE4B9780 000:549.593 - 0.188ms returns 0
TFE4B9780 000:549.597 JLINK_CORESIGHT_WriteAPDPReg(AP reg 0x01, 0x80011140)
TFE4B9780 000:549.787 - 0.190ms returns 0
TFE4B9780 000:549.791 JLINK_CORESIGHT_ReadAPDPReg(AP reg 0x03)
TFE4B9780 000:550.115   Value=0x00000000
TFE4B9780 000:550.121 - 0.329ms returns 0
TFE4B9780 000:550.124 JLINK_CORESIGHT_WriteAPDPReg(AP reg 0x00, 0x80000002)
TFE4B9780 000:550.327 - 0.203ms returns 0
TFE4B9780 000:550.332 JLINK_CORESIGHT_WriteAPDPReg(AP reg 0x01, 0x80011130)
TFE4B9780 000:550.516 - 0.183ms returns 0
TFE4B9780 000:550.519 JLINK_CORESIGHT_ReadAPDPReg(AP reg 0x03)
TFE4B9780 000:550.777   Value=0x0603030B
TFE4B9780 000:550.786 - 0.267ms returns 0
TFE4B9780 000:550.790 JLINK_CORESIGHT_WriteAPDPReg(AP reg 0x00, 0x80000002)
TFE4B9780 000:550.966 - 0.176ms returns 0
TFE4B9780 000:550.971 JLINK_CORESIGHT_WriteAPDPReg(AP reg 0x01, 0x80011140)
TFE4B9780 000:551.193 - 0.221ms returns 0
TFE4B9780 000:551.211 JLINK_CORESIGHT_ReadAPDPReg(AP reg 0x03)
TFE4B9780 000:551.470   Value=0x00000000
TFE4B9780 000:551.475 - 0.264ms returns 0
TFE4B9780 000:551.478 JLINK_CORESIGHT_WriteAPDPReg(AP reg 0x00, 0x80000002)
TFE4B9780 000:551.704 - 0.226ms returns 0
TFE4B9780 000:551.709 JLINK_CORESIGHT_WriteAPDPReg(AP reg 0x01, 0x80011130)
TFE4B9780 000:551.942 - 0.233ms returns 0
TFE4B9780 000:551.947 JLINK_CORESIGHT_ReadAPDPReg(AP reg 0x03)
TFE4B9780 000:552.199   Value=0x2E4B4E20
TFE4B9780 000:552.205 - 0.258ms returns 0
TFE4B9780 000:552.208 JLINK_CORESIGHT_WriteAPDPReg(AP reg 0x00, 0x80000002)
TFE4B9780 000:552.411 - 0.203ms returns 0
TFE4B9780 000:552.416 JLINK_CORESIGHT_WriteAPDPReg(AP reg 0x01, 0x80011140)
TFE4B9780 000:552.650 - 0.234ms returns 0
TFE4B9780 000:552.655 JLINK_CORESIGHT_ReadAPDPReg(AP reg 0x03)
TFE4B9780 000:552.948   Value=0x00000000
TFE4B9780 000:552.954 - 0.298ms returns 0
TFE4B9780 000:552.957 JLINK_CORESIGHT_WriteAPDPReg(AP reg 0x00, 0x80000002)
TFE4B9780 000:553.157 - 0.200ms returns 0
TFE4B9780 000:553.162 JLINK_CORESIGHT_WriteAPDPReg(AP reg 0x01, 0x80011130)
TFE4B9780 000:553.396 - 0.235ms returns 0
TFE4B9780 000:553.401 JLINK_CORESIGHT_ReadAPDPReg(AP reg 0x03)
TFE4B9780 000:553.648   Value=0x4E75D892
TFE4B9780 000:553.654 - 0.253ms returns 0
TFE4B9780 000:553.657 JLINK_CORESIGHT_WriteAPDPReg(AP reg 0x00, 0x80000002)
TFE4B9780 000:553.865 - 0.208ms returns 0
TFE4B9780 000:553.870 JLINK_CORESIGHT_WriteAPDPReg(AP reg 0x01, 0x80011140)
TFE4B9780 000:554.089 - 0.219ms returns 0
TFE4B9780 000:554.096 JLINK_CORESIGHT_ReadAPDPReg(AP reg 0x03)
TFE4B9780 000:554.359   Value=0x00000000
TFE4B9780 000:554.365 - 0.269ms returns 0
TFE4B9780 000:554.368 JLINK_CORESIGHT_WriteAPDPReg(AP reg 0x00, 0x80000002)
TFE4B9780 000:554.589 - 0.221ms returns 0
TFE4B9780 000:554.595 JLINK_CORESIGHT_WriteAPDPReg(AP reg 0x01, 0x80011130)
TFE4B9780 000:554.803 - 0.209ms returns 0
TFE4B9780 000:554.808 JLINK_CORESIGHT_ReadAPDPReg(AP reg 0x03)
TFE4B9780 000:555.125   Value=0x34503036
TFE4B9780 000:555.130 - 0.322ms returns 0
TFE4B9780 000:555.133 JLINK_CORESIGHT_WriteAPDPReg(AP reg 0x00, 0x80000002)
TFE4B9780 000:555.340 - 0.207ms returns 0
TFE4B9780 000:555.345 JLINK_CORESIGHT_WriteAPDPReg(AP reg 0x01, 0x80011140)
TFE4B9780 000:555.556 - 0.211ms returns 0
TFE4B9780 000:555.561 JLINK_CORESIGHT_ReadAPDPReg(AP reg 0x03)
TFE4B9780 000:555.875   Value=0x00000000
TFE4B9780 000:555.880 - 0.319ms returns 0
TFE4B9780 000:555.884 JLINK_CORESIGHT_WriteAPDPReg(AP reg 0x00, 0x80000002)
TFE4B9780 000:556.139 - 0.256ms returns 0
TFE4B9780 000:556.144 JLINK_CORESIGHT_WriteAPDPReg(AP reg 0x01, 0x80011130)
TFE4B9780 000:556.333 - 0.189ms returns 0
TFE4B9780 000:556.338 JLINK_CORESIGHT_ReadAPDPReg(AP reg 0x03)
TFE4B9780 000:556.596   Value=0x72142D36
TFE4B9780 000:556.602 - 0.265ms returns 0
TFE4B9780 000:556.605 JLINK_CORESIGHT_WriteAPDPReg(AP reg 0x00, 0x80000002)
TFE4B9780 000:556.811 - 0.206ms returns 0
TFE4B9780 000:556.816 JLINK_CORESIGHT_WriteAPDPReg(AP reg 0x01, 0x80011140)
TFE4B9780 000:557.095 - 0.280ms returns 0
TFE4B9780 000:557.100 JLINK_CORESIGHT_ReadAPDPReg(AP reg 0x03)
TFE4B9780 000:557.352   Value=0x00000000
TFE4B9780 000:557.358 - 0.258ms returns 0
TFE4B9780 000:557.362 JLINK_CORESIGHT_WriteAPDPReg(AP reg 0x00, 0x80000002)
TFE4B9780 000:557.558 - 0.196ms returns 0
TFE4B9780 000:557.565 JLINK_CORESIGHT_WriteAPDPReg(AP reg 0x01, 0x80011130)
TFE4B9780 000:557.761 - 0.197ms returns 0
TFE4B9780 000:557.766 JLINK_CORESIGHT_ReadAPDPReg(AP reg 0x03)
TFE4B9780 000:558.034   Value=0x46375294
TFE4B9780 000:558.039 - 0.273ms returns 0
TFE4B9780 000:558.042 JLINK_CORESIGHT_WriteAPDPReg(AP reg 0x00, 0x80000002)
TFE4B9780 000:558.247 - 0.205ms returns 0
TFE4B9780 000:558.252 JLINK_CORESIGHT_WriteAPDPReg(AP reg 0x01, 0x80011140)
TFE4B9780 000:558.474 - 0.222ms returns 0
TFE4B9780 000:558.479 JLINK_CORESIGHT_ReadAPDPReg(AP reg 0x03)
TFE4B9780 000:558.737   Value=0x00000000
TFE4B9780 000:558.742 - 0.263ms returns 0
TFE4B9780 000:558.763 JLINK_CORESIGHT_WriteAPDPReg(AP reg 0x00, 0x80000002)
TFE4B9780 000:558.942 - 0.178ms returns 0
TFE4B9780 000:558.947 JLINK_CORESIGHT_WriteAPDPReg(AP reg 0x01, 0x80011130)
TFE4B9780 000:559.155 - 0.208ms returns 0
TFE4B9780 000:559.160 JLINK_CORESIGHT_ReadAPDPReg(AP reg 0x03)
TFE4B9780 000:559.380   Value=0x314D3841
TFE4B9780 000:559.384 - 0.225ms returns 0
TFE4B9780 000:559.387 JLINK_CORESIGHT_WriteAPDPReg(AP reg 0x00, 0x80000002)
TFE4B9780 000:559.564 - 0.176ms returns 0
TFE4B9780 000:559.567 JLINK_CORESIGHT_WriteAPDPReg(AP reg 0x01, 0x80011140)
TFE4B9780 000:559.718 - 0.151ms returns 0
TFE4B9780 000:559.722 JLINK_CORESIGHT_ReadAPDPReg(AP reg 0x03)
TFE4B9780 000:559.948   Value=0x00000000
TFE4B9780 000:559.952 - 0.230ms returns 0
TFE4B9780 000:559.956 JLINK_CORESIGHT_WriteAPDPReg(AP reg 0x00, 0x80000002)
TFE4B9780 000:560.107 - 0.151ms returns 0
TFE4B9780 000:560.111 JLINK_CORESIGHT_WriteAPDPReg(AP reg 0x01, 0x80011130)
TFE4B9780 000:560.319 - 0.209ms returns 0
TFE4B9780 000:560.324 JLINK_CORESIGHT_ReadAPDPReg(AP reg 0x03)
TFE4B9780 000:560.574   Value=0x43454841
TFE4B9780 000:560.579 - 0.255ms returns 0
TFE4B9780 000:560.582 JLINK_CORESIGHT_WriteAPDPReg(AP reg 0x00, 0x80000002)
TFE4B9780 000:560.773 - 0.190ms returns 0
TFE4B9780 000:560.779 JLINK_CORESIGHT_WriteAPDPReg(AP reg 0x01, 0x80011140)
TFE4B9780 000:560.956 - 0.177ms returns 0
TFE4B9780 000:560.960 JLINK_CORESIGHT_ReadAPDPReg(AP reg 0x03)
TFE4B9780 000:561.221   Value=0x00000000
TFE4B9780 000:561.226 - 0.266ms returns 0
TFE4B9780 000:561.229 JLINK_CORESIGHT_WriteAPDPReg(AP reg 0x00, 0x80000002)
TFE4B9780 000:561.442 - 0.212ms returns 0
TFE4B9780 000:561.446 JLINK_CORESIGHT_WriteAPDPReg(AP reg 0x01, 0x80011130)
TFE4B9780 000:561.657 - 0.211ms returns 0
TFE4B9780 000:561.663 JLINK_CORESIGHT_ReadAPDPReg(AP reg 0x03)
TFE4B9780 000:561.942   Value=0x20204442
TFE4B9780 000:561.947 - 0.284ms returns 0
TFE4B9780 000:561.950 JLINK_CORESIGHT_WriteAPDPReg(AP reg 0x00, 0x80000002)
TFE4B9780 000:562.157 - 0.207ms returns 0
TFE4B9780 000:562.166 JLINK_CORESIGHT_WriteAPDPReg(AP reg 0x01, 0x80011140)
TFE4B9780 000:562.376 - 0.211ms returns 0
TFE4B9780 000:562.381 JLINK_CORESIGHT_ReadAPDPReg(AP reg 0x03)
TFE4B9780 000:562.625   Value=0x00000000
TFE4B9780 000:562.630 - 0.249ms returns 0
TFE4B9780 000:562.633 JLINK_CORESIGHT_WriteAPDPReg(AP reg 0x00, 0x80000002)
TFE4B9780 000:562.825 - 0.192ms returns 0
TFE4B9780 000:562.831 JLINK_CORESIGHT_WriteAPDPReg(AP reg 0x01, 0x80011130)
TFE4B9780 000:563.080 - 0.250ms returns 0
TFE4B9780 000:563.085 JLINK_CORESIGHT_ReadAPDPReg(AP reg 0x03)
TFE4B9780 000:563.387   Value=0x0003E520
TFE4B9780 000:563.392 - 0.307ms returns 0
TFE4B9780 000:563.403 JLINK_CORESIGHT_WriteAPDPReg(AP reg 0x00, 0x80000002)
TFE4B9780 000:563.640 - 0.237ms returns 0
TFE4B9780 000:563.645 JLINK_CORESIGHT_WriteAPDPReg(AP reg 0x01, 0x80011140)
TFE4B9780 000:563.854 - 0.209ms returns 0
TFE4B9780 000:563.858 JLINK_CORESIGHT_ReadAPDPReg(AP reg 0x03)
TFE4B9780 000:564.139   Value=0x00000002
TFE4B9780 000:564.146 - 0.288ms returns 0
TFE4B9780 000:564.150 JLINK_CORESIGHT_WriteAPDPReg(AP reg 0x00, 0x80000002)
TFE4B9780 000:564.333 - 0.183ms returns 0
TFE4B9780 000:564.336 JLINK_CORESIGHT_WriteAPDPReg(AP reg 0x01, 0x80011120)
TFE4B9780 000:564.545 - 0.209ms returns 0
TFE4B9780 000:564.550 JLINK_CORESIGHT_WriteAPDPReg(AP reg 0x03, 0x2C010001)
TFE4B9780 000:564.758 - 0.207ms returns 0
TFE4B9780 000:564.762 JLINK_CORESIGHT_WriteAPDPReg(AP reg 0x00, 0x80000002)
TFE4B9780 000:564.943 - 0.181ms returns 0
TFE4B9780 000:564.948 JLINK_CORESIGHT_WriteAPDPReg(AP reg 0x01, 0x80011140)
TFE4B9780 000:565.144 - 0.195ms returns 0
TFE4B9780 000:565.148 JLINK_CORESIGHT_ReadAPDPReg(AP reg 0x03)
TFE4B9780 000:565.395   Value=0x00000002
TFE4B9780 000:565.401 - 0.253ms returns 0
TFE4B9780 000:565.405 JLINK_CORESIGHT_WriteAPDPReg(AP reg 0x00, 0x80000002)
TFE4B9780 000:565.606 - 0.202ms returns 0
TFE4B9780 000:565.611 JLINK_CORESIGHT_WriteAPDPReg(AP reg 0x01, 0x80011120)
TFE4B9780 000:565.814 - 0.203ms returns 0
TFE4B9780 000:565.819 JLINK_CORESIGHT_WriteAPDPReg(AP reg 0x03, 0x000003D3)
TFE4B9780 000:566.041 - 0.223ms returns 0
TFE4B9780 000:566.046 JLINK_CORESIGHT_WriteAPDPReg(AP reg 0x00, 0x80000002)
TFE4B9780 000:566.218 - 0.171ms returns 0
TFE4B9780 000:566.221 JLINK_CORESIGHT_WriteAPDPReg(AP reg 0x01, 0x80011140)
TFE4B9780 000:566.412 - 0.191ms returns 0
TFE4B9780 000:566.416 JLINK_CORESIGHT_ReadAPDPReg(AP reg 0x03)
TFE4B9780 000:566.681   Value=0x00000002
TFE4B9780 000:566.686 - 0.270ms returns 0
TFE4B9780 000:566.689 JLINK_CORESIGHT_ReadAPDPReg(AP reg 0x03)
TFE4B9780 000:566.932   Value=0x00000002
TFE4B9780 000:566.938 - 0.249ms returns 0
TFE4B9780 000:566.942 JLINK_CORESIGHT_ReadAPDPReg(AP reg 0x03)
TFE4B9780 000:567.200   Value=0x00000002
TFE4B9780 000:567.205 - 0.263ms returns 0
TFE4B9780 000:567.208 JLINK_CORESIGHT_ReadAPDPReg(AP reg 0x03)
TFE4B9780 000:567.444   Value=0x00000002
TFE4B9780 000:567.465 - 0.257ms returns 0
TFE4B9780 000:567.468 JLINK_CORESIGHT_ReadAPDPReg(AP reg 0x03)
TFE4B9780 000:567.743   Value=0x00000002
TFE4B9780 000:567.748 - 0.280ms returns 0
TFE4B9780 000:567.768 JLINK_CORESIGHT_ReadAPDPReg(AP reg 0x03)
TFE4B9780 000:568.024   Value=0x00000002
TFE4B9780 000:568.029 - 0.261ms returns 0
TFE4B9780 000:568.050 JLINK_CORESIGHT_ReadAPDPReg(AP reg 0x03)
TFE4B9780 000:568.306   Value=0x00000002
TFE4B9780 000:568.311 - 0.261ms returns 0
TFE4B9780 000:568.332 JLINK_CORESIGHT_ReadAPDPReg(AP reg 0x03)
TFE4B9780 000:568.578   Value=0x00000002
TFE4B9780 000:568.603 - 0.271ms returns 0
TFE4B9780 000:568.607 JLINK_CORESIGHT_ReadAPDPReg(AP reg 0x03)
TFE4B9780 000:568.863   Value=0x00000002
TFE4B9780 000:568.868 - 0.261ms returns 0
TFE4B9780 000:568.890 JLINK_CORESIGHT_ReadAPDPReg(AP reg 0x03)
TFE4B9780 000:569.135   Value=0x00000002
TFE4B9780 000:569.140 - 0.250ms returns 0
TFE4B9780 000:569.144 JLINK_CORESIGHT_ReadAPDPReg(AP reg 0x03)
TFE4B9780 000:569.409   Value=0x00000002
TFE4B9780 000:569.415 - 0.270ms returns 0
TFE4B9780 000:569.418 JLINK_CORESIGHT_ReadAPDPReg(AP reg 0x03)
TFE4B9780 000:569.644   Value=0x00000002
TFE4B9780 000:569.649 - 0.231ms returns 0
TFE4B9780 000:569.653 JLINK_CORESIGHT_ReadAPDPReg(AP reg 0x03)
TFE4B9780 000:569.946   Value=0x00000000
TFE4B9780 000:569.951 - 0.299ms returns 0
TFE4B9780 000:569.973 JLINK_CORESIGHT_WriteAPDPReg(AP reg 0x00, 0x80000002)
TFE4B9780 000:570.194 - 0.221ms returns 0
TFE4B9780 000:570.200 JLINK_CORESIGHT_WriteAPDPReg(AP reg 0x01, 0x80011130)
TFE4B9780 000:570.421 - 0.222ms returns 0
TFE4B9780 000:570.427 JLINK_CORESIGHT_ReadAPDPReg(AP reg 0x03)
TFE4B9780 000:570.682   Value=0x2C020081
TFE4B9780 000:570.687 - 0.260ms returns 0
TFE4B9780 000:570.691 JLINK_CORESIGHT_WriteAPDPReg(AP reg 0x00, 0x80000002)
TFE4B9780 000:570.938 - 0.247ms returns 0
TFE4B9780 000:570.945 JLINK_CORESIGHT_WriteAPDPReg(AP reg 0x01, 0x80011140)
TFE4B9780 000:571.141 - 0.196ms returns 0
TFE4B9780 000:571.146 JLINK_CORESIGHT_ReadAPDPReg(AP reg 0x03)
TFE4B9780 000:571.397   Value=0x00000000
TFE4B9780 000:571.402 - 0.257ms returns 0
TFE4B9780 000:571.406 JLINK_CORESIGHT_WriteAPDPReg(AP reg 0x00, 0x80000002)
TFE4B9780 000:571.628 - 0.221ms returns 0
TFE4B9780 000:571.633 JLINK_CORESIGHT_WriteAPDPReg(AP reg 0x01, 0x80011130)
TFE4B9780 000:571.831 - 0.197ms returns 0
TFE4B9780 000:571.836 JLINK_CORESIGHT_ReadAPDPReg(AP reg 0x03)
TFE4B9780 000:572.123   Value=0x0003CE04
TFE4B9780 000:572.128 - 0.292ms returns 0
TFE4B9780 000:572.135 JLINK_CORESIGHT_WriteAPDPReg(AP reg 0x00, 0x80000002)
TFE4B9780 000:572.366 - 0.231ms returns 0
TFE4B9780 000:572.372 JLINK_CORESIGHT_WriteAPDPReg(AP reg 0x01, 0x80011140)
TFE4B9780 000:572.594 - 0.222ms returns 0
TFE4B9780 000:572.599 JLINK_CORESIGHT_ReadAPDPReg(AP reg 0x03)
TFE4B9780 000:572.863   Value=0x00000002
TFE4B9780 000:572.868 - 0.269ms returns 0
TFE4B9780 000:572.884 JLINK_CORESIGHT_WriteAPDPReg(AP reg 0x00, 0x80000002)
TFE4B9780 000:573.071 - 0.186ms returns 0
TFE4B9780 000:573.076 JLINK_CORESIGHT_WriteAPDPReg(AP reg 0x01, 0x80011120)
TFE4B9780 000:573.285 - 0.209ms returns 0
TFE4B9780 000:573.291 JLINK_CORESIGHT_WriteAPDPReg(AP reg 0x03, 0x73010001)
TFE4B9780 000:573.507 - 0.216ms returns 0
TFE4B9780 000:573.513 JLINK_CORESIGHT_WriteAPDPReg(AP reg 0x00, 0x80000002)
TFE4B9780 000:573.731 - 0.217ms returns 0
TFE4B9780 000:573.736 JLINK_CORESIGHT_WriteAPDPReg(AP reg 0x01, 0x80011140)
TFE4B9780 000:573.931 - 0.195ms returns 0
TFE4B9780 000:573.936 JLINK_CORESIGHT_ReadAPDPReg(AP reg 0x03)
TFE4B9780 000:574.188   Value=0x00000002
TFE4B9780 000:574.196 - 0.259ms returns 0
TFE4B9780 000:574.200 JLINK_CORESIGHT_WriteAPDPReg(AP reg 0x00, 0x80000002)
TFE4B9780 000:574.395 - 0.196ms returns 0
TFE4B9780 000:574.400 JLINK_CORESIGHT_WriteAPDPReg(AP reg 0x01, 0x80011120)
TFE4B9780 000:574.582 - 0.182ms returns 0
TFE4B9780 000:574.588 JLINK_CORESIGHT_WriteAPDPReg(AP reg 0x03, 0x0000038C)
TFE4B9780 000:574.788 - 0.199ms returns 0
TFE4B9780 000:574.793 JLINK_CORESIGHT_WriteAPDPReg(AP reg 0x00, 0x80000002)
TFE4B9780 000:575.053 - 0.260ms returns 0
TFE4B9780 000:575.059 JLINK_CORESIGHT_WriteAPDPReg(AP reg 0x01, 0x80011140)
TFE4B9780 000:575.252 - 0.193ms returns 0
TFE4B9780 000:575.256 JLINK_CORESIGHT_ReadAPDPReg(AP reg 0x03)
TFE4B9780 000:575.512   Value=0x00000002
TFE4B9780 000:575.518 - 0.262ms returns 0
TFE4B9780 000:575.522 JLINK_CORESIGHT_ReadAPDPReg(AP reg 0x03)
TFE4B9780 000:575.768   Value=0x00000002
TFE4B9780 000:575.773 - 0.251ms returns 0
TFE4B9780 000:575.777 JLINK_CORESIGHT_ReadAPDPReg(AP reg 0x03)
TFE4B9780 000:576.102   Value=0x00000002
TFE4B9780 000:576.108 - 0.332ms returns 0
TFE4B9780 000:576.112 JLINK_CORESIGHT_ReadAPDPReg(AP reg 0x03)
TFE4B9780 000:576.365   Value=0x00000002
TFE4B9780 000:576.371 - 0.259ms returns 0
TFE4B9780 000:576.375 JLINK_CORESIGHT_ReadAPDPReg(AP reg 0x03)
TFE4B9780 000:576.637   Value=0x00000002
TFE4B9780 000:576.643 - 0.267ms returns 0
TFE4B9780 000:576.646 JLINK_CORESIGHT_ReadAPDPReg(AP reg 0x03)
TFE4B9780 000:576.863   Value=0x00000002
TFE4B9780 000:576.868 - 0.222ms returns 0
TFE4B9780 000:576.872 JLINK_CORESIGHT_ReadAPDPReg(AP reg 0x03)
TFE4B9780 000:577.094   Value=0x00000002
TFE4B9780 000:577.100 - 0.228ms returns 0
TFE4B9780 000:577.104 JLINK_CORESIGHT_ReadAPDPReg(AP reg 0x03)
TFE4B9780 000:577.352   Value=0x00000002
TFE4B9780 000:577.358 - 0.254ms returns 0
TFE4B9780 000:577.362 JLINK_CORESIGHT_ReadAPDPReg(AP reg 0x03)
TFE4B9780 000:577.635   Value=0x00000000
TFE4B9780 000:577.642 - 0.280ms returns 0
TFE4B9780 000:577.646 JLINK_CORESIGHT_WriteAPDPReg(AP reg 0x00, 0x80000002)
TFE4B9780 000:577.842 - 0.195ms returns 0
TFE4B9780 000:577.865 JLINK_CORESIGHT_WriteAPDPReg(AP reg 0x01, 0x80011130)
TFE4B9780 000:578.066 - 0.201ms returns 0
TFE4B9780 000:578.071 JLINK_CORESIGHT_ReadAPDPReg(AP reg 0x03)
TFE4B9780 000:578.314   Value=0x73020081
TFE4B9780 000:578.318 - 0.247ms returns 0
TFE4B9780 000:578.322 JLINK_CORESIGHT_WriteAPDPReg(AP reg 0x00, 0x80000002)
TFE4B9780 000:578.519 - 0.197ms returns 0
TFE4B9780 000:578.524 JLINK_CORESIGHT_WriteAPDPReg(AP reg 0x01, 0x80011140)
TFE4B9780 000:578.708 - 0.183ms returns 0
TFE4B9780 000:578.713 JLINK_CORESIGHT_ReadAPDPReg(AP reg 0x03)
TFE4B9780 000:578.990   Value=0x00000000
TFE4B9780 000:578.996 - 0.284ms returns 0
TFE4B9780 000:579.000 JLINK_CORESIGHT_WriteAPDPReg(AP reg 0x00, 0x80000002)
TFE4B9780 000:579.215 - 0.215ms returns 0
TFE4B9780 000:579.221 JLINK_CORESIGHT_WriteAPDPReg(AP reg 0x01, 0x80011130)
TFE4B9780 000:579.435 - 0.215ms returns 0
TFE4B9780 000:579.441 JLINK_CORESIGHT_ReadAPDPReg(AP reg 0x03)
TFE4B9780 000:579.693   Value=0x00038902
TFE4B9780 000:579.698 - 0.257ms returns 0
TFE4B9780 000:579.703 JLINK_CORESIGHT_WriteAPDPReg(AP reg 0x00, 0x80000002)
TFE4B9780 000:579.942 - 0.239ms returns 0
TFE4B9780 000:579.949 JLINK_CORESIGHT_WriteAPDPReg(AP reg 0x01, 0x80011140)
TFE4B9780 000:580.162 - 0.214ms returns 0
TFE4B9780 000:580.168 JLINK_CORESIGHT_ReadAPDPReg(AP reg 0x03)
TFE4B9780 000:580.404   Value=0x00000002
TFE4B9780 000:580.410 - 0.242ms returns 0
TFE4B9780 000:580.417 JLINK_CORESIGHT_WriteAPDPReg(AP reg 0x00, 0x80000002)
TFE4B9780 000:580.666 - 0.250ms returns 0
TFE4B9780 000:580.676 JLINK_CORESIGHT_WriteAPDPReg(AP reg 0x01, 0x80011120)
TFE4B9780 000:581.330 - 0.653ms returns 0
TFE4B9780 000:581.359 JLINK_CORESIGHT_WriteAPDPReg(AP reg 0x03, 0x75010001)
TFE4B9780 000:581.579 - 0.220ms returns 0
TFE4B9780 000:581.603 JLINK_CORESIGHT_WriteAPDPReg(AP reg 0x00, 0x80000002)
TFE4B9780 000:581.789 - 0.185ms returns 0
TFE4B9780 000:581.795 JLINK_CORESIGHT_WriteAPDPReg(AP reg 0x01, 0x80011140)
TFE4B9780 000:582.060 - 0.265ms returns 0
TFE4B9780 000:582.080 JLINK_CORESIGHT_ReadAPDPReg(AP reg 0x03)
TFE4B9780 000:582.302   Value=0x00000002
TFE4B9780 000:582.306 - 0.226ms returns 0
TFE4B9780 000:582.323 JLINK_CORESIGHT_WriteAPDPReg(AP reg 0x00, 0x80000002)
TFE4B9780 000:582.503 - 0.180ms returns 0
TFE4B9780 000:582.510 JLINK_CORESIGHT_WriteAPDPReg(AP reg 0x01, 0x80011120)
TFE4B9780 000:582.688 - 0.178ms returns 0
TFE4B9780 000:582.693 JLINK_CORESIGHT_WriteAPDPReg(AP reg 0x03, 0x0000038A)
TFE4B9780 000:582.848 - 0.155ms returns 0
TFE4B9780 000:582.863 JLINK_CORESIGHT_WriteAPDPReg(AP reg 0x00, 0x80000002)
TFE4B9780 000:583.319 - 0.455ms returns 0
TFE4B9780 000:583.332 JLINK_CORESIGHT_WriteAPDPReg(AP reg 0x01, 0x80011140)
TFE4B9780 000:583.536 - 0.203ms returns 0
TFE4B9780 000:583.558 JLINK_CORESIGHT_ReadAPDPReg(AP reg 0x03)
TFE4B9780 000:583.798   Value=0x00000002
TFE4B9780 000:583.806 - 0.248ms returns 0
TFE4B9780 000:583.813 JLINK_CORESIGHT_ReadAPDPReg(AP reg 0x03)
TFE4B9780 000:584.086   Value=0x00000002
TFE4B9780 000:584.111 - 0.297ms returns 0
TFE4B9780 000:584.115 JLINK_CORESIGHT_ReadAPDPReg(AP reg 0x03)
TFE4B9780 000:584.333   Value=0x00000002
TFE4B9780 000:584.337 - 0.222ms returns 0
TFE4B9780 000:584.342 JLINK_CORESIGHT_ReadAPDPReg(AP reg 0x03)
TFE4B9780 000:584.568   Value=0x00000002
TFE4B9780 000:584.579 - 0.238ms returns 0
TFE4B9780 000:584.586 JLINK_CORESIGHT_ReadAPDPReg(AP reg 0x03)
TFE4B9780 000:584.961   Value=0x00000002
TFE4B9780 000:584.968 - 0.382ms returns 0
TFE4B9780 000:584.973 JLINK_CORESIGHT_ReadAPDPReg(AP reg 0x03)
TFE4B9780 000:585.251   Value=0x00000002
TFE4B9780 000:585.262 - 0.290ms returns 0
TFE4B9780 000:585.270 JLINK_CORESIGHT_ReadAPDPReg(AP reg 0x03)
TFE4B9780 000:585.534   Value=0x00000002
TFE4B9780 000:585.544 - 0.275ms returns 0
TFE4B9780 000:585.551 JLINK_CORESIGHT_ReadAPDPReg(AP reg 0x03)
TFE4B9780 000:585.778   Value=0x00000002
TFE4B9780 000:585.784 - 0.233ms returns 0
TFE4B9780 000:585.790 JLINK_CORESIGHT_ReadAPDPReg(AP reg 0x03)
TFE4B9780 000:586.039   Value=0x00000002
TFE4B9780 000:586.047 - 0.257ms returns 0
TFE4B9780 000:586.054 JLINK_CORESIGHT_ReadAPDPReg(AP reg 0x03)
TFE4B9780 000:586.282   Value=0x00000002
TFE4B9780 000:586.291 - 0.237ms returns 0
TFE4B9780 000:586.321 JLINK_CORESIGHT_ReadAPDPReg(AP reg 0x03)
TFE4B9780 000:586.564   Value=0x00000002
TFE4B9780 000:586.570 - 0.250ms returns 0
TFE4B9780 000:586.574 JLINK_CORESIGHT_ReadAPDPReg(AP reg 0x03)
TFE4B9780 000:586.789   Value=0x00000002
TFE4B9780 000:586.796 - 0.222ms returns 0
TFE4B9780 000:586.800 JLINK_CORESIGHT_ReadAPDPReg(AP reg 0x03)
TFE4B9780 000:587.163   Value=0x00000000
TFE4B9780 000:587.169 - 0.369ms returns 0
TFE4B9780 000:587.173 JLINK_CORESIGHT_WriteAPDPReg(AP reg 0x00, 0x80000002)
TFE4B9780 000:587.348 - 0.175ms returns 0
TFE4B9780 000:587.357 JLINK_CORESIGHT_WriteAPDPReg(AP reg 0x01, 0x80011130)
TFE4B9780 000:587.570 - 0.213ms returns 0
TFE4B9780 000:587.587 JLINK_CORESIGHT_ReadAPDPReg(AP reg 0x03)
TFE4B9780 000:587.951   Value=0x75020081
TFE4B9780 000:587.959 - 0.372ms returns 0
TFE4B9780 000:587.977 JLINK_CORESIGHT_WriteAPDPReg(AP reg 0x00, 0x80000002)
TFE4B9780 000:588.173 - 0.196ms returns 0
TFE4B9780 000:588.182 JLINK_CORESIGHT_WriteAPDPReg(AP reg 0x01, 0x80011140)
TFE4B9780 000:588.365 - 0.182ms returns 0
TFE4B9780 000:588.372 JLINK_CORESIGHT_ReadAPDPReg(AP reg 0x03)
TFE4B9780 000:588.801   Value=0x00000000
TFE4B9780 000:588.809 - 0.437ms returns 0
TFE4B9780 000:588.813 JLINK_CORESIGHT_WriteAPDPReg(AP reg 0x00, 0x80000002)
TFE4B9780 000:589.105 - 0.292ms returns 0
TFE4B9780 000:589.113 JLINK_CORESIGHT_WriteAPDPReg(AP reg 0x01, 0x80011130)
TFE4B9780 000:589.292 - 0.180ms returns 0
TFE4B9780 000:589.297 JLINK_CORESIGHT_ReadAPDPReg(AP reg 0x03)
TFE4B9780 000:589.567   Value=0x00038702
TFE4B9780 000:589.578 - 0.281ms returns 0
TFE4B9780 000:589.592 JLINK_CORESIGHT_WriteAPDPReg(AP reg 0x00, 0x80000002)
TFE4B9780 000:589.918 - 0.325ms returns 0
TFE4B9780 000:589.927 JLINK_CORESIGHT_WriteAPDPReg(AP reg 0x01, 0x80011140)
TFE4B9780 000:590.191 - 0.263ms returns 0
TFE4B9780 000:590.199 JLINK_CORESIGHT_ReadAPDPReg(AP reg 0x03)
TFE4B9780 000:590.587   Value=0x00000002
TFE4B9780 000:590.596 - 0.396ms returns 0
TFE4B9780 000:590.600 JLINK_CORESIGHT_WriteAPDPReg(AP reg 0x00, 0x80000002)
TFE4B9780 000:590.772 - 0.172ms returns 0
TFE4B9780 000:590.787 JLINK_CORESIGHT_WriteAPDPReg(AP reg 0x01, 0x80011120)
TFE4B9780 000:590.967 - 0.181ms returns 0
TFE4B9780 000:590.978 JLINK_CORESIGHT_WriteAPDPReg(AP reg 0x03, 0x4F010001)
TFE4B9780 000:591.208 - 0.230ms returns 0
TFE4B9780 000:591.217 JLINK_CORESIGHT_WriteAPDPReg(AP reg 0x00, 0x80000002)
TFE4B9780 000:591.486 - 0.269ms returns 0
TFE4B9780 000:591.492 JLINK_CORESIGHT_WriteAPDPReg(AP reg 0x01, 0x80011140)
TFE4B9780 000:591.686 - 0.195ms returns 0
TFE4B9780 000:591.693 JLINK_CORESIGHT_ReadAPDPReg(AP reg 0x03)
TFE4B9780 000:591.914   Value=0x00000002
TFE4B9780 000:591.919 - 0.226ms returns 0
TFE4B9780 000:591.923 JLINK_CORESIGHT_WriteAPDPReg(AP reg 0x00, 0x80000002)
TFE4B9780 000:592.085 - 0.162ms returns 0
TFE4B9780 000:592.095 JLINK_CORESIGHT_WriteAPDPReg(AP reg 0x01, 0x80011120)
TFE4B9780 000:592.287 - 0.192ms returns 0
TFE4B9780 000:592.292 JLINK_CORESIGHT_WriteAPDPReg(AP reg 0x03, 0x000003B0)
TFE4B9780 000:592.468 - 0.176ms returns 0
TFE4B9780 000:592.472 JLINK_CORESIGHT_WriteAPDPReg(AP reg 0x00, 0x80000002)
TFE4B9780 000:593.642 - 1.170ms returns 0
TFE4B9780 000:593.661 JLINK_CORESIGHT_WriteAPDPReg(AP reg 0x01, 0x80011140)
TFE4B9780 000:593.832 - 0.171ms returns 0
TFE4B9780 000:593.838 JLINK_CORESIGHT_ReadAPDPReg(AP reg 0x03)
TFE4B9780 000:594.130   Value=0x00000002
TFE4B9780 000:594.146 - 0.307ms returns 0
TFE4B9780 000:594.150 JLINK_CORESIGHT_ReadAPDPReg(AP reg 0x03)
TFE4B9780 000:594.376   Value=0x00000002
TFE4B9780 000:594.381 - 0.231ms returns 0
TFE4B9780 000:594.384 JLINK_CORESIGHT_ReadAPDPReg(AP reg 0x03)
TFE4B9780 000:594.605   Value=0x00000002
TFE4B9780 000:594.610 - 0.226ms returns 0
TFE4B9780 000:594.631 JLINK_CORESIGHT_ReadAPDPReg(AP reg 0x03)
TFE4B9780 000:594.922   Value=0x00000002
TFE4B9780 000:594.927 - 0.296ms returns 0
TFE4B9780 000:594.948 JLINK_CORESIGHT_ReadAPDPReg(AP reg 0x03)
TFE4B9780 000:595.169   Value=0x00000002
TFE4B9780 000:595.174 - 0.226ms returns 0
TFE4B9780 000:595.190 JLINK_CORESIGHT_ReadAPDPReg(AP reg 0x03)
TFE4B9780 000:595.377   Value=0x00000002
TFE4B9780 000:595.382 - 0.192ms returns 0
TFE4B9780 000:595.399 JLINK_CORESIGHT_ReadAPDPReg(AP reg 0x03)
TFE4B9780 000:595.625   Value=0x00000002
TFE4B9780 000:595.630 - 0.232ms returns 0
TFE4B9780 000:595.633 JLINK_CORESIGHT_ReadAPDPReg(AP reg 0x03)
TFE4B9780 000:595.919   Value=0x00000002
TFE4B9780 000:595.925 - 0.292ms returns 0
TFE4B9780 000:595.928 JLINK_CORESIGHT_ReadAPDPReg(AP reg 0x03)
TFE4B9780 000:596.152   Value=0x00000002
TFE4B9780 000:596.157 - 0.229ms returns 0
TFE4B9780 000:596.160 JLINK_CORESIGHT_ReadAPDPReg(AP reg 0x03)
TFE4B9780 000:596.355   Value=0x00000000
TFE4B9780 000:596.360 - 0.200ms returns 0
TFE4B9780 000:596.364 JLINK_CORESIGHT_WriteAPDPReg(AP reg 0x00, 0x80000002)
TFE4B9780 000:596.515 - 0.151ms returns 0
TFE4B9780 000:596.519 JLINK_CORESIGHT_WriteAPDPReg(AP reg 0x01, 0x80011130)
TFE4B9780 000:596.714 - 0.195ms returns 0
TFE4B9780 000:596.719 JLINK_CORESIGHT_ReadAPDPReg(AP reg 0x03)
TFE4B9780 000:596.964   Value=0x4F0B0081
TFE4B9780 000:596.974 - 0.255ms returns 0
TFE4B9780 000:596.979 JLINK_CORESIGHT_WriteAPDPReg(AP reg 0x00, 0x80000002)
TFE4B9780 000:597.133 - 0.154ms returns 0
TFE4B9780 000:597.137 JLINK_CORESIGHT_WriteAPDPReg(AP reg 0x01, 0x80011140)
TFE4B9780 000:597.314 - 0.177ms returns 0
TFE4B9780 000:597.319 JLINK_CORESIGHT_ReadAPDPReg(AP reg 0x03)
TFE4B9780 000:597.593   Value=0x00000000
TFE4B9780 000:597.605 - 0.286ms returns 0
TFE4B9780 000:597.626 JLINK_CORESIGHT_WriteAPDPReg(AP reg 0x00, 0x80000002)
TFE4B9780 000:597.801 - 0.175ms returns 0
TFE4B9780 000:597.807 JLINK_CORESIGHT_WriteAPDPReg(AP reg 0x01, 0x80011130)
TFE4B9780 000:598.066 - 0.258ms returns 0
TFE4B9780 000:598.072 JLINK_CORESIGHT_ReadAPDPReg(AP reg 0x03)
TFE4B9780 000:598.294   Value=0xE0070000
TFE4B9780 000:598.299 - 0.228ms returns 0
TFE4B9780 000:598.303 JLINK_CORESIGHT_WriteAPDPReg(AP reg 0x00, 0x80000002)
TFE4B9780 000:598.482 - 0.179ms returns 0
TFE4B9780 000:598.487 JLINK_CORESIGHT_WriteAPDPReg(AP reg 0x01, 0x80011140)
TFE4B9780 000:598.684 - 0.198ms returns 0
TFE4B9780 000:598.688 JLINK_CORESIGHT_ReadAPDPReg(AP reg 0x03)
TFE4B9780 000:598.923   Value=0x00000000
TFE4B9780 000:598.928 - 0.239ms returns 0
TFE4B9780 000:598.931 JLINK_CORESIGHT_WriteAPDPReg(AP reg 0x00, 0x80000002)
TFE4B9780 000:599.112 - 0.181ms returns 0
TFE4B9780 000:599.123 JLINK_CORESIGHT_WriteAPDPReg(AP reg 0x01, 0x80011130)
TFE4B9780 000:599.747 - 0.623ms returns 0
TFE4B9780 000:599.759 JLINK_CORESIGHT_ReadAPDPReg(AP reg 0x03)
TFE4B9780 000:600.161   Value=0x00000C00
TFE4B9780 000:600.181 - 0.422ms returns 0
TFE4B9780 000:600.185 JLINK_CORESIGHT_WriteAPDPReg(AP reg 0x00, 0x80000002)
TFE4B9780 000:600.358 - 0.173ms returns 0
TFE4B9780 000:600.366 JLINK_CORESIGHT_WriteAPDPReg(AP reg 0x01, 0x80011140)
TFE4B9780 000:600.551 - 0.185ms returns 0
TFE4B9780 000:600.556 JLINK_CORESIGHT_ReadAPDPReg(AP reg 0x03)
TFE4B9780 000:600.781   Value=0x00000000
TFE4B9780 000:600.795 - 0.239ms returns 0
TFE4B9780 000:600.800 JLINK_CORESIGHT_WriteAPDPReg(AP reg 0x00, 0x80000002)
TFE4B9780 000:601.025 - 0.224ms returns 0
TFE4B9780 000:601.029 JLINK_CORESIGHT_WriteAPDPReg(AP reg 0x01, 0x80011130)
TFE4B9780 000:601.207 - 0.178ms returns 0
TFE4B9780 000:601.211 JLINK_CORESIGHT_ReadAPDPReg(AP reg 0x03)
TFE4B9780 000:601.485   Value=0x03B30000
TFE4B9780 000:601.505 - 0.295ms returns 0
TFE4B9780 000:601.570 JLINK_CORESIGHT_ReadAPDPReg(DP reg 0x01)
TFE4B9780 000:601.742   Value=0xF0000F40
TFE4B9780 000:601.749 - 0.179ms returns 0
TFE4B9780 000:601.753 JLINK_CORESIGHT_WriteAPDPReg(DP reg 0x01, 0xA0000F40)
TFE4B9780 000:601.925 - 0.172ms returns 0
TFE4B9780 000:601.929 JLINK_CORESIGHT_ReadAPDPReg(DP reg 0x01)
TFE4B9780 000:602.107   Value=0x00000F40
TFE4B9780 000:602.111 - 0.182ms returns 0
TFE4B9780 000:602.114 JLINK_ClrRESET()
TFE4B9780 000:602.312 - 0.198ms
TFE4B9780 000:703.028 JLINK_Close()
TFE4B9780 000:707.975 - 4.946ms
TFE4B9780 000:707.988   
TFE4B9780 000:708.008   Closed
